
**** 10/29/22 16:10:30 ******* PSpice 17.4.0 (Nov 2018) ******* ID# 0 ********

 ** Profile: "SCHEMATIC1-lab1"  [ D:\MDDT\LAB2\lab1-PSpiceFiles\SCHEMATIC1\lab1.sim ] 


 ****     CIRCUIT DESCRIPTION


******************************************************************************




** Creating circuit file "lab1.cir" 
** WARNING: THIS AUTOMATICALLY GENERATED FILE MAY BE OVERWRITTEN BY SUBSEQUENT SIMULATIONS

*Libraries: 
* Profile Libraries :
* Local Libraries :
* From [PSPICE NETLIST] section of C:\cds_spb_home\cdssetup\OrCAD_PSpiceTIPSpice_Install\17.4.0\PSpice.ini file:
.lib "nom_pspti.lib" 
.lib "nom.lib" 

*Analysis directives: 
.OPTIONS ADVCONV
.OPTIONS FILEMODELSEARCH
.PROBE64 V(alias(*)) I(alias(*)) W(alias(*)) D(alias(*)) NOISE(alias(*)) 
.INC "..\SCHEMATIC1.net" 



**** INCLUDING SCHEMATIC1.net ****
* source LAB1
R_R1         N00526 N00521  2k TC=0,0 
V_V1         N00521 0 12Vdc
D_D1         N00526 N00564 Dbreak 
R_R2         0 N00526  8k TC=0,0 
R_R3         N00564 N00521  4k TC=0,0 
R_R4         0 N00564  6k TC=0,0 

**** RESUMING lab1.cir ****
.END

**** 10/29/22 16:10:30 ******* PSpice 17.4.0 (Nov 2018) ******* ID# 0 ********

 ** Profile: "SCHEMATIC1-lab1"  [ D:\MDDT\LAB2\lab1-PSpiceFiles\SCHEMATIC1\lab1.sim ] 


 ****     SMALL SIGNAL BIAS SOLUTION       TEMPERATURE =   27.000 DEG C


******************************************************************************



 NODE   VOLTAGE     NODE   VOLTAGE     NODE   VOLTAGE     NODE   VOLTAGE


(N00521)   12.0000 (N00526)    8.8936 (N00564)    8.2596 




    VOLTAGE SOURCE CURRENTS
    NAME         CURRENT

    V_V1        -2.488E-03

    TOTAL POWER DISSIPATION   2.99E-02  WATTS



          JOB CONCLUDED

**** 10/29/22 16:10:30 ******* PSpice 17.4.0 (Nov 2018) ******* ID# 0 ********

 ** Profile: "SCHEMATIC1-lab1"  [ D:\MDDT\LAB2\lab1-PSpiceFiles\SCHEMATIC1\lab1.sim ] 


 ****     JOB STATISTICS SUMMARY


******************************************************************************



  License check-out time            =       22.75
  Total job time (using Solver 1)   =         .22
