
**** 10/29/22 15:32:46 ******* PSpice 17.4.0 (Nov 2018) ******* ID# 0 ********

 ** Profile: "SCHEMATIC1-lab1"  [ D:\MDDT\LAB2\lab1-PSpiceFiles\SCHEMATIC1\lab1.sim ] 


 ****     CIRCUIT DESCRIPTION


******************************************************************************




** Creating circuit file "lab1.cir" 
** WARNING: THIS AUTOMATICALLY GENERATED FILE MAY BE OVERWRITTEN BY SUBSEQUENT SIMULATIONS

*Libraries: 
* Profile Libraries :
* Local Libraries :
* From [PSPICE NETLIST] section of C:\cds_spb_home\cdssetup\OrCAD_PSpiceTIPSpice_Install\17.4.0\PSpice.ini file:
.lib "nom_pspti.lib" 
.lib "nom.lib" 

*Analysis directives: 
.OPTIONS ADVCONV
.OPTIONS FILEMODELSEARCH
.PROBE64 V(alias(*)) I(alias(*)) W(alias(*)) D(alias(*)) NOISE(alias(*)) 
.INC "..\SCHEMATIC1.net" 



**** INCLUDING SCHEMATIC1.net ****
* source LAB1
R_R1         0 N00351  1k TC=0,0 
V_V1         N00336 0 10Vdc
D_D1         N00336 N00343 Dbreak 
D_D2         N00343 N00347 Dbreak 
D_D3         N00347 N00351 Dbreak 

**** RESUMING lab1.cir ****
.END

**** 10/29/22 15:32:46 ******* PSpice 17.4.0 (Nov 2018) ******* ID# 0 ********

 ** Profile: "SCHEMATIC1-lab1"  [ D:\MDDT\LAB2\lab1-PSpiceFiles\SCHEMATIC1\lab1.sim ] 


 ****     SMALL SIGNAL BIAS SOLUTION       TEMPERATURE =   27.000 DEG C


******************************************************************************



 NODE   VOLTAGE     NODE   VOLTAGE     NODE   VOLTAGE     NODE   VOLTAGE


(N00336)   10.0000 (N00343)    9.2907 (N00347)    8.5815 (N00351)    7.8722 




    VOLTAGE SOURCE CURRENTS
    NAME         CURRENT

    V_V1        -7.872E-03

    TOTAL POWER DISSIPATION   7.87E-02  WATTS



          JOB CONCLUDED

**** 10/29/22 15:32:46 ******* PSpice 17.4.0 (Nov 2018) ******* ID# 0 ********

 ** Profile: "SCHEMATIC1-lab1"  [ D:\MDDT\LAB2\lab1-PSpiceFiles\SCHEMATIC1\lab1.sim ] 


 ****     JOB STATISTICS SUMMARY


******************************************************************************



  License check-out time            =       22.24
  Total job time (using Solver 1)   =         .22
